Freq.	Ic(Q8)
Step Information: Cl=1ç  (Step: 1/2)
1.00000000000000e+00	(9.48943139052132e+01dB,-4.36098618466685e+00¯)
1.02329299228075e+00	(9.48929372811083e+01dB,-4.47876816515007e+00¯)
1.04712854805090e+00	(9.48914955290374e+01dB,-4.59887667201036e+00¯)
1.07151930523761e+00	(9.48899856574190e+01dB,-4.72137197123512e+00¯)
1.09647819614318e+00	(9.48884045365166e+01dB,-4.84631535384843e+00¯)
1.12201845430196e+00	(9.48867488924387e+01dB,-4.97376915166674e+00¯)
1.14815362149688e+00	(9.48850153008329e+01dB,-5.10379675243783e+00¯)
1.17489755493953e+00	(9.48832001803470e+01dB,-5.23646261432545e+00¯)
1.20226443461741e+00	(9.48812997858298e+01dB,-5.37183227967984e+00¯)
1.23026877081238e+00	(9.48793102012522e+01dB,-5.50997238797621e+00¯)
1.25892541179417e+00	(9.48772273323289e+01dB,-5.65095068786447e+00¯)
1.28824955169313e+00	(9.48750468988912e+01dB,-5.79483604826153e+00¯)
1.31825673855641e+00	(9.48727644269255e+01dB,-5.94169846833453e+00¯)
1.34896288259165e+00	(9.48703752403111e+01dB,-6.09160908631851e+00¯)
1.38038426460288e+00	(9.48678744522674e+01dB,-6.24464018705813e+00¯)
1.41253754462275e+00	(9.48652569564562e+01dB,-6.40086520813172e+00¯)
1.44543977074593e+00	(9.48625174177616e+01dB,-6.56035874445373e+00¯)
1.47910838816821e+00	(9.48596502627368e+01dB,-6.72319655121984e+00¯)
1.51356124843621e+00	(9.48566496697117e+01dB,-6.88945554506398e+00¯)
1.54881661891248e+00	(9.48535095585378e+01dB,-7.05921380325233e+00¯)
1.58489319246111e+00	(9.48502235799932e+01dB,-7.23255056079581e+00¯)
1.62181009735893e+00	(9.48467851048201e+01dB,-7.40954620528213e+00¯)
1.65958690743756e+00	(9.48431872123912e+01dB,-7.59028226926756e+00¯)
1.69824365246174e+00	(9.48394226790347e+01dB,-7.77484142005079e+00¯)
1.73780082874937e+00	(9.48354839659540e+01dB,-7.96330744660113e+00¯)
1.77827941003892e+00	(9.48313632067826e+01dB,-8.15576524346368e+00¯)
1.81970085860998e+00	(9.48270521948013e+01dB,-8.35230079143833e+00¯)
1.86208713666287e+00	(9.48225423697343e+01dB,-8.55300113474576e+00¯)
1.90546071796325e+00	(9.48178248042052e+01dB,-8.75795435449847e+00¯)
1.94984459975804e+00	(9.48128901898195e+01dB,-8.96724953819951e+00¯)
1.99526231496888e+00	(9.48077288228925e+01dB,-9.18097674502121e+00¯)
2.04173794466953e+00	(9.48023305898160e+01dB,-9.39922696655421e+00¯)
2.08929613085404e+00	(9.47966849521001e+01dB,-9.62209208280605e+00¯)
2.13796208950223e+00	(9.47907809310697e+01dB,-9.84966481307154e+00¯)
2.18776162394955e+00	(9.47846070922550e+01dB,-1.00820386614440e+01¯)
2.23872113856834e+00	(9.47781515295028e+01dB,-1.03193078565946e+01¯)
2.29086765276777e+00	(9.47714018487889e+01dB,-1.05615672855168e+01¯)
2.34422881531992e+00	(9.47643451518087e+01dB,-1.08089124208916e+01¯)
2.39883291901949e+00	(9.47569680193387e+01dB,-1.10614392417264e+01¯)
2.45470891568503e+00	(9.47492564944165e+01dB,-1.13192441469045e+01¯)
2.51188643150958e+00	(9.47411960653690e+01dB,-1.15824238612798e+01¯)
2.57039578276886e+00	(9.47327716487602e+01dB,-1.18510753339917e+01¯)
2.63026799189538e+00	(9.47239675722448e+01dB,-1.21252956285437e+01¯)
2.69153480392691e+00	(9.47147675574571e+01dB,-1.24051818043619e+01¯)
2.75422870333816e+00	(9.47051547029419e+01dB,-1.26908307893954e+01¯)
2.81838293126445e+00	(9.46951114671949e+01dB,-1.29823392434104e+01¯)
2.88403150312660e+00	(9.46846196519238e+01dB,-1.32798034116171e+01¯)
2.95120922666638e+00	(9.46736603855542e+01dB,-1.35833189682426e+01¯)
3.01995172040201e+00	(9.46622141071058e+01dB,-1.38929808497384e+01¯)
3.09029543251359e+00	(9.46502605505234e+01dB,-1.42088830772615e+01¯)
3.16227766016837e+00	(9.46377787295437e+01dB,-1.45311185681085e+01¯)
3.23593656929628e+00	(9.46247469232380e+01dB,-1.48597789358802e+01¯)
3.31131121482591e+00	(9.46111426623090e+01dB,-1.51949542789673e+01¯)
3.38844156139202e+00	(9.45969427163212e+01dB,-1.55367329573586e+01¯)
3.46736850452531e+00	(9.45821230819262e+01dB,-1.58852013573138e+01¯)
3.54813389233575e+00	(9.45666589722929e+01dB,-1.62404436440224e+01¯)
3.63078054770101e+00	(9.45505248078547e+01dB,-1.66025415019489e+01¯)
3.71535229097172e+00	(9.45336942085281e+01dB,-1.69715738629723e+01¯)
3.80189396320560e+00	(9.45161399876068e+01dB,-1.73476166223188e+01¯)
3.89045144994280e+00	(9.44978341474595e+01dB,-1.77307423423951e+01¯)
3.98107170553496e+00	(9.44787478772488e+01dB,-1.81210199447162e+01¯)
4.07380277804112e+00	(9.44588515528333e+01dB,-1.85185143902652e+01¯)
4.16869383470335e+00	(9.44381147390649e+01dB,-1.89232863486369e+01¯)
4.26579518801592e+00	(9.44165061946774e+01dB,-1.93353918564767e+01¯)
4.36515832240165e+00	(9.43939938799572e+01dB,-1.97548819658432e+01¯)
4.46683592150962e+00	(9.43705449674157e+01dB,-2.01818023832484e+01¯)
4.57088189614874e+00	(9.43461258556697e+01dB,-2.06161931002588e+01¯)
4.67735141287197e+00	(9.43207021867203e+01dB,-2.10580880166400e+01¯)
4.78630092322637e+00	(9.42942388668598e+01dB,-2.15075145572882e+01¯)
4.89778819368445e+00	(9.42667000913829e+01dB,-2.19644932842534e+01¯)
5.01187233627271e+00	(9.42380493733018e+01dB,-2.24290375052654e+01¯)
5.12861383991364e+00	(9.42082495762630e+01dB,-2.29011528805973e+01¯)
5.24807460249771e+00	(9.41772629518106e+01dB,-2.33808370298652e+01¯)
5.37031796370252e+00	(9.41450511811760e+01dB,-2.38680791409771e+01¯)
5.49540873857623e+00	(9.41115754217258e+01dB,-2.43628595832150e+01¯)
5.62341325190348e+00	(9.40767963581666e+01dB,-2.48651495268511e+01¯)
5.75439937337156e+00	(9.40406742586324e+01dB,-2.53749105717950e+01¯)
5.88843655355588e+00	(9.40031690356940e+01dB,-2.58920943878430e+01¯)
6.02559586074356e+00	(9.39642403123345e+01dB,-2.64166423693542e+01¯)
6.16595001861481e+00	(9.39238474928684e+01dB,-2.69484853071467e+01¯)
6.30957344480192e+00	(9.38819498388141e+01dB,-2.74875430807841e+01¯)
6.45654229034654e+00	(9.38385065495684e+01dB,-2.80337243740971e+01¯)
6.60693448007594e+00	(9.37934768478293e+01dB,-2.85869264173264e+01¯)
6.76082975391980e+00	(9.37468200695331e+01dB,-2.91470347588285e+01¯)
6.91830970918935e+00	(9.36984957581250e+01dB,-2.97139230697094e+01¯)
7.07945784384136e+00	(9.36484637628709e+01dB,-3.02874529843790e+01¯)
7.24435960074988e+00	(9.35966843408984e+01dB,-3.08674739802289e+01¯)
7.41310241300916e+00	(9.35431182625678e+01dB,-3.14538232992704e+01¯)
7.58577575029182e+00	(9.34877269197682e+01dB,-3.20463259146338e+01¯)
7.76247116628690e+00	(9.34304724366365e+01dB,-3.26447945445878e+01¯)
7.94328234724279e+00	(9.33713177821767e+01dB,-3.32490297163085e+01¯)
8.12830516164097e+00	(9.33102268841777e+01dB,-3.38588198816799e+01¯)
8.31763771102669e+00	(9.32471647438456e+01dB,-3.44739415868598e+01¯)
8.51138038202374e+00	(9.31820975504254e+01dB,-3.50941596969891e+01¯)
8.70963589956078e+00	(9.31149927951602e+01dB,-3.57192276771526e+01¯)
8.91250938133743e+00	(9.30458193838183e+01dB,-3.63488879300983e+01¯)
9.12010839355907e+00	(9.29745477470690e+01dB,-3.69828721909468e+01¯)
9.33254300796988e+00	(9.29011499478993e+01dB,-3.76209019784451e+01¯)
9.54992586021433e+00	(9.28255997853319e+01dB,-3.82626891018689e+01¯)
9.77237220955808e+00	(9.27478728936399e+01dB,-3.89079362222245e+01¯)
9.99999999999997e+00	(9.26679468363199e+01dB,-3.95563374658362e+01¯)
1.02329299228075e+01	(9.25858011940627e+01dB,-4.02075790876402e+01¯)
1.04712854805090e+01	(9.25014176460313e+01dB,-4.08613401815100e+01¯)
1.07151930523760e+01	(9.24147800437534e+01dB,-4.15172934338267e+01¯)
1.09647819614318e+01	(9.23258744770272e+01dB,-4.21751059165175e+01¯)
1.12201845430196e+01	(9.22346893312611e+01dB,-4.28344399149718e+01¯)
1.14815362149688e+01	(9.21412153357639e+01dB,-4.34949537861650e+01¯)
1.17489755493953e+01	(9.20454456025549e+01dB,-4.41563028417766e+01¯)
1.20226443461741e+01	(9.19473756553486e+01dB,-4.48181402508089e+01¯)
1.23026877081238e+01	(9.18470034484635e+01dB,-4.54801179560227e+01¯)
1.25892541179416e+01	(9.17443293754014e+01dB,-4.61418875979121e+01¯)
1.28824955169313e+01	(9.16393562674769e+01dB,-4.68031014431363e+01¯)
1.31825673855640e+01	(9.15320893813852e+01dB,-4.74634133040439e+01¯)
1.34896288259165e+01	(9.14225363773132e+01dB,-4.81224794533608e+01¯)
1.38038426460288e+01	(9.13107072866656e+01dB,-4.87799595205879e+01¯)
1.41253754462275e+01	(9.11966144701596e+01dB,-4.94355173677468e+01¯)
1.44543977074592e+01	(9.10802725665455e+01dB,-5.00888219383154e+01¯)
1.47910838816820e+01	(9.09616984324467e+01dB,-5.07395480744648e+01¯)
1.51356124843620e+01	(9.08409110738100e+01dB,-5.13873772979495e+01¯)
1.54881661891248e+01	(9.07179315695401e+01dB,-5.20319985501660e+01¯)
1.58489319246111e+01	(9.05927829879959e+01dB,-5.26731088877328e+01¯)
1.62181009735892e+01	(9.04654902969914e+01dB,-5.33104141302796e+01¯)
1.65958690743755e+01	(9.03360802680455e+01dB,-5.39436294573883e+01¯)
1.69824365246174e+01	(9.02045813756242e+01dB,-5.45724799526065e+01¯)
1.73780082874937e+01	(9.00710236921406e+01dB,-5.51967010927197e+01¯)
1.77827941003892e+01	(8.99354387794934e+01dB,-5.58160391809555e+01¯)
1.81970085860998e+01	(8.97978595779119e+01dB,-5.64302517234802e+01¯)
1.86208713666286e+01	(8.96583202928835e+01dB,-5.70391077489729e+01¯)
1.90546071796324e+01	(8.95168562808893e+01dB,-5.76423880715435e+01¯)
1.94984459975804e+01	(8.93735039347055e+01dB,-5.82398854977570e+01¯)
1.99526231496887e+01	(8.92283005689291e+01dB,-5.88314049788283e+01¯)
2.04173794466952e+01	(8.90812843064111e+01dB,-5.94167637097469e+01¯)
2.08929613085403e+01	(8.89324939661760e+01dB,-5.99957911769770e+01¯)
2.13796208950222e+01	(8.87819689534375e+01dB,-6.05683291570945e+01¯)
2.18776162394954e+01	(8.86297491521498e+01dB,-6.11342316684549e+01¯)
2.23872113856833e+01	(8.84758748208098e+01dB,-6.16933648809531e+01¯)
2.29086765276776e+01	(8.83203864913587e+01dB,-6.22456069804339e+01¯)
2.34422881531991e+01	(8.81633248722876e+01dB,-6.27908479995184e+01¯)
2.39883291901948e+01	(8.80047307556932e+01dB,-6.33289896110182e+01¯)
2.45470891568502e+01	(8.78446449287763e+01dB,-6.38599448902339e+01¯)
2.51188643150957e+01	(8.76831080899290e+01dB,-6.43836380485220e+01¯)
2.57039578276885e+01	(8.75201607695953e+01dB,-6.49000041413466e+01¯)
2.63026799189537e+01	(8.73558432559874e+01dB,-6.54089887541108e+01¯)
2.69153480392690e+01	(8.71901955257566e+01dB,-6.59105476685599e+01¯)
2.75422870333815e+01	(8.70232571796096e+01dB,-6.64046465130293e+01¯)
2.81838293126444e+01	(8.68550673828964e+01dB,-6.68912603990485e+01¯)
2.88403150312659e+01	(8.66856648111023e+01dB,-6.73703735473175e+01¯)
2.95120922666637e+01	(8.65150876001679e+01dB,-6.78419789052254e+01¯)
3.01995172040200e+01	(8.63433733015785e+01dB,-6.83060777593361e+01¯)
3.09029543251358e+01	(8.61705588420646e+01dB,-6.87626793442073e+01¯)
3.16227766016837e+01	(8.59966804876665e+01dB,-6.92118004482196e+01¯)
3.23593656929627e+01	(8.58217738122642e+01dB,-6.96534650225224e+01¯)
3.31131121482590e+01	(8.56458736701418e+01dB,-7.00877037908959e+01¯)
3.38844156139201e+01	(8.54690141725220e+01dB,-7.05145538636678e+01¯)
3.46736850452530e+01	(8.52912286678416e+01dB,-7.09340583572526e+01¯)
3.54813389233574e+01	(8.51125497255833e+01dB,-7.13462660201857e+01¯)
3.63078054770100e+01	(8.49330091234453e+01dB,-7.17512308670531e+01¯)
3.71535229097171e+01	(8.47526378376493e+01dB,-7.21490118211683e+01¯)
3.80189396320559e+01	(8.45714660361646e+01dB,-7.25396723664405e+01¯)
3.89045144994279e+01	(8.43895230747260e+01dB,-7.29232802112342e+01¯)
3.98107170553495e+01	(8.42068374952329e+01dB,-7.32999069600203e+01¯)
4.07380277804111e+01	(8.40234370266167e+01dB,-7.36696277993855e+01¯)
4.16869383470333e+01	(8.38393485877558e+01dB,-7.40325211940762e+01¯)
4.26579518801591e+01	(8.36545982924154e+01dB,-7.43886685965159e+01¯)
4.36515832240164e+01	(8.34692114558260e+01dB,-7.47381541660500e+01¯)
4.46683592150961e+01	(8.32832126029898e+01dB,-7.50810645028048e+01¯)
4.57088189614873e+01	(8.30966254783479e+01dB,-7.54174883927711e+01¯)
4.67735141287196e+01	(8.29094730567389e+01dB,-7.57475165652659e+01¯)
4.78630092322636e+01	(8.27217775554800e+01dB,-7.60712414621222e+01¯)
4.89778819368444e+01	(8.25335604474771e+01dB,-7.63887570203716e+01¯)
5.01187233627270e+01	(8.23448424751032e+01dB,-7.67001584640389e+01¯)
5.12861383991362e+01	(8.21556436649016e+01dB,-7.70055421096424e+01¯)
5.24807460249770e+01	(8.19659833428988e+01dB,-7.73050051830441e+01¯)
5.37031796370250e+01	(8.17758801503651e+01dB,-7.75986456451668e+01¯)
5.49540873857622e+01	(8.15853520600704e+01dB,-7.78865620301760e+01¯)
5.62341325190346e+01	(8.13944163928551e+01dB,-7.81688532944263e+01¯)
5.75439937337154e+01	(8.12030898343892e+01dB,-7.84456186728604e+01¯)
5.88843655355586e+01	(8.10113884521703e+01dB,-7.87169575474137e+01¯)
6.02559586074355e+01	(8.08193277125733e+01dB,-7.89829693235593e+01¯)
6.16595001861479e+01	(8.06269224979796e+01dB,-7.92437533164692e+01¯)
6.30957344480190e+01	(8.04341871238160e+01dB,-7.94994086438324e+01¯)
6.45654229034652e+01	(8.02411353556086e+01dB,-7.97500341295030e+01¯)
6.60693448007593e+01	(8.00477804258276e+01dB,-7.99957282119956e+01¯)
6.76082975391978e+01	(7.98541350506608e+01dB,-8.02365888630494e+01¯)
6.91830970918933e+01	(7.96602114465030e+01dB,-8.04727135105841e+01¯)
7.07945784384134e+01	(7.94660213463007e+01dB,-8.07041989709794e+01¯)
7.24435960074986e+01	(7.92715760155616e+01dB,-8.09311413848972e+01¯)
7.41310241300914e+01	(7.90768862681562e+01dB,-8.11536361618167e+01¯)
7.58577575029180e+01	(7.88819624817488e+01dB,-8.13717779275646e+01¯)
7.76247116628688e+01	(7.86868146129705e+01dB,-8.15856604795729e+01¯)
7.94328234724277e+01	(7.84914522122156e+01dB,-8.17953767456578e+01¯)
8.12830516164095e+01	(7.82958844380967e+01dB,-8.20010187474030e+01¯)
8.31763771102667e+01	(7.81001200715726e+01dB,-8.22026775694461e+01¯)
8.51138038202372e+01	(7.79041675296760e+01dB,-8.24004433315503e+01¯)
8.70963589956076e+01	(7.77080348788933e+01dB,-8.25944051650417e+01¯)
8.91250938133741e+01	(7.75117298481637e+01dB,-8.27846511934346e+01¯)
9.12010839355905e+01	(7.73152598414994e+01dB,-8.29712685150924e+01¯)
9.33254300796986e+01	(7.71186319502472e+01dB,-8.31543431912281e+01¯)
9.54992586021431e+01	(7.69218529649527e+01dB,-8.33339602350933e+01¯)
9.77237220955805e+01	(7.67249293868684e+01dB,-8.35102036045514e+01¯)
9.99999999999995e+01	(7.65278674390777e+01dB,-8.36831561977433e+01¯)
1.02329299228075e+02	(7.63306730772633e+01dB,-8.38528998504967e+01¯)
1.04712854805089e+02	(7.61333520001073e+01dB,-8.40195153361566e+01¯)
1.07151930523760e+02	(7.59359096593415e+01dB,-8.41830823685557e+01¯)
1.09647819614318e+02	(7.57383512694246e+01dB,-8.43436796043167e+01¯)
1.12201845430196e+02	(7.55406818169152e+01dB,-8.45013846505105e+01¯)
1.14815362149688e+02	(7.53429060694582e+01dB,-8.46562740707117e+01¯)
1.17489755493952e+02	(7.51450285844838e+01dB,-8.48084233952860e+01¯)
1.20226443461741e+02	(7.49470537175457e+01dB,-8.49579071304006e+01¯)
1.23026877081237e+02	(7.47489856303745e+01dB,-8.51047987710375e+01¯)
1.25892541179416e+02	(7.45508282985931e+01dB,-8.52491708131633e+01¯)
1.28824955169313e+02	(7.43525855191599e+01dB,-8.53910947682089e+01¯)
1.31825673855640e+02	(7.41542609174988e+01dB,-8.55306411779227e+01¯)
1.34896288259165e+02	(7.39558579543449e+01dB,-8.56678796302247e+01¯)
1.38038426460288e+02	(7.37573799323267e+01dB,-8.58028787763968e+01¯)
1.41253754462275e+02	(7.35588300022678e+01dB,-8.59357063487498e+01¯)
1.44543977074592e+02	(7.33602111692283e+01dB,-8.60664291781570e+01¯)
1.47910838816820e+02	(7.31615262982887e+01dB,-8.61951132141888e+01¯)
1.51356124843620e+02	(7.29627781201020e+01dB,-8.63218235433688e+01¯)
1.54881661891247e+02	(7.27639692361920e+01dB,-8.64466244103520e+01¯)
1.58489319246110e+02	(7.25651021240199e+01dB,-8.65695792376472e+01¯)
1.62181009735892e+02	(7.23661791418436e+01dB,-8.66907506469653e+01¯)
1.65958690743755e+02	(7.21672025333358e+01dB,-8.68102004805679e+01¯)
1.69824365246173e+02	(7.19681744320077e+01dB,-8.69279898222607e+01¯)
1.73780082874936e+02	(7.17690968654282e+01dB,-8.70441790204050e+01¯)
1.77827941003891e+02	(7.15699717592324e+01dB,-8.71588277093020e+01¯)
1.81970085860997e+02	(7.13708009409568e+01dB,-8.72719948321041e+01¯)
1.86208713666286e+02	(7.11715861436724e+01dB,-8.73837386630628e+01¯)
1.90546071796323e+02	(7.09723290094502e+01dB,-8.74941168309075e+01¯)
1.94984459975803e+02	(7.07730310926491e+01dB,-8.76031863412117e+01¯)
1.99526231496887e+02	(7.05736938630269e+01dB,-8.77110036001198e+01¯)
2.04173794466952e+02	(7.03743187087035e+01dB,-8.78176244372877e+01¯)
2.08929613085403e+02	(7.01749069389511e+01dB,-8.79231041292680e+01¯)
2.13796208950222e+02	(6.99754597868409e+01dB,-8.80274974228498e+01¯)
2.18776162394954e+02	(6.97759784117300e+01dB,-8.81308585587635e+01¯)
2.23872113856832e+02	(6.95764639016131e+01dB,-8.82332412950559e+01¯)
2.29086765276776e+02	(6.93769172753277e+01dB,-8.83346989309533e+01¯)
2.34422881531991e+02	(6.91773394846238e+01dB,-8.84352843299323e+01¯)
2.39883291901947e+02	(6.89777314160997e+01dB,-8.85350499437807e+01¯)
2.45470891568501e+02	(6.87780938930028e+01dB,-8.86340478362610e+01¯)
2.51188643150956e+02	(6.85784276769132e+01dB,-8.87323297071918e+01¯)
2.57039578276885e+02	(6.83787334692990e+01dB,-8.88299469146574e+01¯)
2.63026799189536e+02	(6.81790119129411e+01dB,-8.89269505003394e+01¯)
2.69153480392690e+02	(6.79792635932521e+01dB,-8.90233912128326e+01¯)
2.75422870333815e+02	(6.77794890394799e+01dB,-8.91193195303090e+01¯)
2.81838293126443e+02	(6.75796887257822e+01dB,-8.92147856853051e+01¯)
2.88403150312659e+02	(6.73798630722022e+01dB,-8.93098396880104e+01¯)
2.95120922666637e+02	(6.71800124455299e+01dB,-8.94045313498704e+01¯)
3.01995172040200e+02	(6.69801371600560e+01dB,-8.94989103071831e+01¯)
3.09029543251357e+02	(6.67802374782132e+01dB,-8.95930260448392e+01¯)
3.16227766016836e+02	(6.65803136111222e+01dB,-8.96869279194450e+01¯)
3.23593656929626e+02	(6.63803657190162e+01dB,-8.97806651838634e+01¯)
3.31131121482589e+02	(6.61803939115744e+01dB,-8.98742870101154e+01¯)
3.38844156139200e+02	(6.59803982481519e+01dB,-8.99678425129095e+01¯)
3.46736850452529e+02	(6.57803787378957e+01dB,-9.00613807732749e+01¯)
3.54813389233573e+02	(6.55803353397663e+01dB,-9.01549508623911e+01¯)
3.63078054770099e+02	(6.53802679624502e+01dB,-9.02486018650737e+01¯)
3.71535229097170e+02	(6.51801764641808e+01dB,-9.03423829026322e+01¯)
3.80189396320558e+02	(6.49800606524364e+01dB,-9.04363431574222e+01¯)
3.89045144994278e+02	(6.47799202835539e+01dB,-9.05305318956002e+01¯)
3.98107170553494e+02	(6.45797550622231e+01dB,-9.06249984909029e+01¯)
4.07380277804110e+02	(6.43795646408858e+01dB,-9.07197924479121e+01¯)
4.16869383470332e+02	(6.41793486190181e+01dB,-9.08149634260241e+01¯)
4.26579518801589e+02	(6.39791065423116e+01dB,-9.09105612624185e+01¯)
4.36515832240163e+02	(6.37788379017432e+01dB,-9.10066359959179e+01¯)
4.46683592150960e+02	(6.35785421325338e+01dB,-9.11032378899944e+01¯)
4.57088189614872e+02	(6.33782186129831e+01dB,-9.12004174572897e+01¯)
4.67735141287195e+02	(6.31778666632215e+01dB,-9.12982254809822e+01¯)
4.78630092322635e+02	(6.29774855437883e+01dB,-9.13967130411678e+01¯)
4.89778819368442e+02	(6.27770744541592e+01dB,-9.14959315349811e+01¯)
5.01187233627268e+02	(6.25766325310897e+01dB,-9.15959327021990e+01¯)
5.12861383991361e+02	(6.23761588468572e+01dB,-9.16967686486540e+01¯)
5.24807460249769e+02	(6.21756524073887e+01dB,-9.17984918682878e+01¯)
5.37031796370249e+02	(6.19751121502385e+01dB,-9.19011552665744e+01¯)
5.49540873857620e+02	(6.17745369424156e+01dB,-9.20048121855577e+01¯)
5.62341325190345e+02	(6.15739255781235e+01dB,-9.21095164237564e+01¯)
5.75439937337152e+02	(6.13732767762787e+01dB,-9.22153222632641e+01¯)
5.88843655355584e+02	(6.11725891779769e+01dB,-9.23222844881639e+01¯)
6.02559586074353e+02	(6.09718613437001e+01dB,-9.24304584121658e+01¯)
6.16595001861477e+02	(6.07710917504697e+01dB,-9.25398998973838e+01¯)
6.30957344480188e+02	(6.05702787887559e+01dB,-9.26506653798523e+01¯)
6.45654229034650e+02	(6.03694207592802e+01dB,-9.27628118900537e+01¯)
6.60693448007591e+02	(6.01685158696100e+01dB,-9.28763970759491e+01¯)
6.76082975391976e+02	(5.99675622305772e+01dB,-9.29914792260748e+01¯)
6.91830970918931e+02	(5.97665578525482e+01dB,-9.31081172893476e+01¯)
7.07945784384132e+02	(5.95655006414533e+01dB,-9.32263708989464e+01¯)
7.24435960074984e+02	(5.93643883946667e+01dB,-9.33463003919805e+01¯)
7.41310241300911e+02	(5.91632187966601e+01dB,-9.34679668314037e+01¯)
7.58577575029177e+02	(5.89619894144491e+01dB,-9.35914320267908e+01¯)
